
**** 06/04/20 16:12:45 ********* PSpice 9.2 (Mar 2000) ******** ID# 0 ********

 * D:\VideoEscola\Eletronica Analogica\Lab4 transistores.sch


 ****     CIRCUIT DESCRIPTION


******************************************************************************




* Schematics Version 9.2
* Thu Jun 04 16:12:41 2020



** Analysis setup **
.OP 


* From [PSPICE NETLIST] section of C:\Program Files\Orcad\PSpice\PSpice.ini:
.lib "nom.lib"

.INC "Lab4 transistores.net"



**** INCLUDING "Lab4 transistores.net" ****
* Schematics Netlist *



V_VCC         $N_0001 0 10V
R_Rb         $N_0003 $N_0002  47k  
R_Rc         $N_0004 $N_0001  180  
Q_Q2         $N_0004 $N_0003 0 Q2N2222
V_VBB         $N_0002 0 1.10V

**** RESUMING "Lab4 transistores.cir" ****
.PROBE V(*) I(*) W(*) D(*) NOISE(*) 


.END

**** 06/04/20 16:12:45 ********* PSpice 9.2 (Mar 2000) ******** ID# 0 ********

 * D:\VideoEscola\Eletronica Analogica\Lab4 transistores.sch


 ****     BJT MODEL PARAMETERS


******************************************************************************




               Q2N2222         
               NPN             
          IS   14.340000E-15 
          BF  255.9          
          NF    1            
         VAF   74.03         
         IKF     .2847       
         ISE   14.340000E-15 
          NE    1.307        
          BR    6.092        
          NR    1            
          RB   10            
          RC    1            
         CJE   22.010000E-12 
         MJE     .377        
         CJC    7.306000E-12 
         MJC     .3416       
          TF  411.100000E-12 
         XTF    3            
         VTF    1.7          
         ITF     .6          
          TR   46.910000E-09 
         XTB    1.5          
          CN    2.42         
           D     .87         


**** 06/04/20 16:12:45 ********* PSpice 9.2 (Mar 2000) ******** ID# 0 ********

 * D:\VideoEscola\Eletronica Analogica\Lab4 transistores.sch


 ****     SMALL SIGNAL BIAS SOLUTION       TEMPERATURE =   27.000 DEG C


******************************************************************************



 NODE   VOLTAGE     NODE   VOLTAGE     NODE   VOLTAGE     NODE   VOLTAGE


($N_0001)   10.0000                   ($N_0002)    1.1000                       

($N_0003)     .6555                   ($N_0004)    9.7079                   




    VOLTAGE SOURCE CURRENTS
    NAME         CURRENT

    V_VCC       -1.623E-03
    V_VBB       -9.457E-06

    TOTAL POWER DISSIPATION   1.62E-02  WATTS


**** 06/04/20 16:12:45 ********* PSpice 9.2 (Mar 2000) ******** ID# 0 ********

 * D:\VideoEscola\Eletronica Analogica\Lab4 transistores.sch


 ****     OPERATING POINT INFORMATION      TEMPERATURE =   27.000 DEG C


******************************************************************************






**** BIPOLAR JUNCTION TRANSISTORS


NAME         Q_Q2      
MODEL        Q2N2222   
IB           9.46E-06 
IC           1.62E-03 
VBE          6.56E-01 
VBC         -9.05E+00 
VCE          9.71E+00 
BETADC       1.72E+02 
GM           6.24E-02 
RPI          3.02E+03 
RX           1.00E+01 
RO           5.12E+04 
CBE          6.23E-11 
CBC          3.04E-12 
CJS          0.00E+00 
BETAAC       1.88E+02 
CBX/CBX2     0.00E+00 
FT/FT2       1.52E+08 



          JOB CONCLUDED

          TOTAL JOB TIME             .02
