
**** 07/07/20 20:48:10 ********* PSpice 9.2 (Mar 2000) ******** ID# 0 ********

 * D:\VideoEscola\Eletronica Analogica\Lab5 5 exercicio.sch


 ****     CIRCUIT DESCRIPTION


******************************************************************************




* Schematics Version 9.2
* Tue Jul 07 20:48:07 2020



** Analysis setup **
.tran 0ns 2.6
.OP 
.LIB "D:\VideoEscola\Eletronica Analogica\Lab5 5 exercicio.lib"


* From [PSPICE NETLIST] section of C:\Program Files\Orcad\PSpice\PSpice.ini:
.lib "nom.lib"

.INC "Lab5 5 exercicio.net"



**** INCLUDING "Lab5 5 exercicio.net" ****
* Schematics Netlist *



R_R2         $N_0002 $N_0001  1k  
R_R1         $N_0003 $N_0001  1k  
R_R5         0 $N_0001  100k  
C_C2         $N_0002 0  10uF  
D_D1         0 $N_0004 D1N750 
V_V1         $N_0001 0 10V
X_U3         0 $N_0005 Sw_tOpen PARAMS: tOpen=0 ttran=1m Rclosed=0.01
+  Ropen=1Meg
V_V2         $N_0005 0 0V
M_M1         $N_0003 0 0 0 Mbreakn           
D_D2         0 0 D1N750 
C_C1         $N_0004 $N_0003  10uF  
R_R4         $N_0004 $N_0001  100k  
M_M2         $N_0002 $N_0004 0 0 Mbreakn           

**** RESUMING "Lab5 5 exercicio.cir" ****
.PROBE V(*) I(*) W(*) D(*) NOISE(*) 


.END

**** 07/07/20 20:48:10 ********* PSpice 9.2 (Mar 2000) ******** ID# 0 ********

 * D:\VideoEscola\Eletronica Analogica\Lab5 5 exercicio.sch


 ****     Diode MODEL PARAMETERS


******************************************************************************




               D1N750          
          IS  880.500000E-18 
         ISR    1.859000E-09 
          BV    4.7          
         IBV     .020245     
         NBV    1.6989       
        IBVL    1.955600E-03 
        NBVL   14.976        
          RS     .25         
         CJO  175.000000E-12 
          VJ     .75         
           M     .5516       
        TBV1  -21.277000E-06 


**** 07/07/20 20:48:10 ********* PSpice 9.2 (Mar 2000) ******** ID# 0 ********

 * D:\VideoEscola\Eletronica Analogica\Lab5 5 exercicio.sch


 ****     MOSFET MODEL PARAMETERS


******************************************************************************




               Mbreakn         
               NMOS            
       LEVEL    1            
           L  100.000000E-06 
           W  100.000000E-06 
         VTO    2            
          KP     .02         
       GAMMA    0            
         PHI     .6          
      LAMBDA     .02         
          IS   10.000000E-15 
          JS    0            
          PB     .8          
        PBSW     .8          
          CJ    0            
        CJSW    0            
        CGSO    0            
        CGDO    0            
        CGBO    0            
         TOX    0            
          XJ    0            
       UCRIT   10.000000E+03 
      DIOMOD    1            
         VFB    0            
        LETA    0            
        WETA    0            
          U0    0            
        TEMP    0            
         VDD    0            
       XPART    0            


**** 07/07/20 20:48:10 ********* PSpice 9.2 (Mar 2000) ******** ID# 0 ********

 * D:\VideoEscola\Eletronica Analogica\Lab5 5 exercicio.sch


 ****     Voltage Controlled Switch MODEL PARAMETERS


******************************************************************************




               X_U3.Smod       
         RON     .01         
        ROFF    1.000000E+06 
         VON    1            
        VOFF    0            


**** 07/07/20 20:48:10 ********* PSpice 9.2 (Mar 2000) ******** ID# 0 ********

 * D:\VideoEscola\Eletronica Analogica\Lab5 5 exercicio.sch


 ****     SMALL SIGNAL BIAS SOLUTION       TEMPERATURE =   27.000 DEG C


******************************************************************************



 NODE   VOLTAGE     NODE   VOLTAGE     NODE   VOLTAGE     NODE   VOLTAGE


(X_U3.3)    1.0000 ($N_0001)   10.0000                   ($N_0002)     .4009    

($N_0003)   10.0000                   ($N_0004)    3.3881                       

($N_0005)    0.0000                   




    VOLTAGE SOURCE CURRENTS
    NAME         CURRENT

    V_V1        -9.765E-03
    V_V2         0.000E+00
    X_U3.V1     -1.000E-12

    TOTAL POWER DISSIPATION   9.77E-02  WATTS


**** 07/07/20 20:48:10 ********* PSpice 9.2 (Mar 2000) ******** ID# 0 ********

 * D:\VideoEscola\Eletronica Analogica\Lab5 5 exercicio.sch


 ****     OPERATING POINT INFORMATION      TEMPERATURE =   27.000 DEG C


******************************************************************************






**** DIODES


NAME         D_D1        D_D2      
MODEL        D1N750      D1N750    
ID          -6.61E-05    0.00E+00 
VD          -3.39E+00    0.00E+00 
REQ          5.86E+03    2.78E+07 
CAP          6.82E-11    1.75E-10 


**** MOSFETS


NAME         M_M1        M_M2      
MODEL        Mbreakn     Mbreakn   
ID           1.00E-11    9.60E-03 
VGS          0.00E+00    3.39E+00 
VDS          1.00E+01    4.01E-01 
VBS          0.00E+00    0.00E+00 
VTH          2.00E+00    2.00E+00 
VDSAT        0.00E+00    1.39E+00 
Lin0/Sat1   -1.00E+00   -1.00E+00 
if          -1.00E+00   -1.00E+00 
ir          -1.00E+00   -1.00E+00 
TAU         -1.00E+00   -1.00E+00 
GM           0.00E+00    8.08E-03 
GDS          0.00E+00    2.01E-02 
GMB          0.00E+00    0.00E+00 
CBD          0.00E+00    0.00E+00 
CBS          0.00E+00    0.00E+00 
CGSOV        0.00E+00    0.00E+00 
CGDOV        0.00E+00    0.00E+00 
CGBOV        0.00E+00    0.00E+00 
CGS          0.00E+00    0.00E+00 
CGD          0.00E+00    0.00E+00 
CGB          0.00E+00    0.00E+00 


**** VOLTAGE CONTROLLED SWITCHES


NAME         X_U3.S1   
MODEL        X_U3.Smod 
I LOAD       0.00E+00 
V LOAD       0.00E+00 
R LOAD       1.00E-02 
V CTRL       1.00E+00 
**** 07/07/20 20:48:10 ********* PSpice 9.2 (Mar 2000) ******** ID# 0 ********

 * D:\VideoEscola\Eletronica Analogica\Lab5 5 exercicio.sch


 ****     INITIAL TRANSIENT SOLUTION       TEMPERATURE =   27.000 DEG C


******************************************************************************



 NODE   VOLTAGE     NODE   VOLTAGE     NODE   VOLTAGE     NODE   VOLTAGE


(X_U3.3)    1.0000 ($N_0001)   10.0000                   ($N_0002)     .4009    

($N_0003)   10.0000                   ($N_0004)    3.3881                       

($N_0005)    0.0000                   




    VOLTAGE SOURCE CURRENTS
    NAME         CURRENT

    V_V1        -9.765E-03
    V_V2         0.000E+00
    X_U3.V1     -1.000E-12

    TOTAL POWER DISSIPATION   9.77E-02  WATTS



          JOB CONCLUDED

          TOTAL JOB TIME             .02
