
**** 07/07/20 18:47:39 ********* PSpice 9.2 (Mar 2000) ******** ID# 0 ********

 * D:\VideoEscola\Eletronica Analogica\Lab5 2 exercicio.sch


 ****     CIRCUIT DESCRIPTION


******************************************************************************




* Schematics Version 9.2
* Tue Jul 07 18:47:35 2020



** Analysis setup **
.OP 
.LIB "D:\VideoEscola\Eletronica Analogica\Lab5 2 exercicio.lib"


* From [PSPICE NETLIST] section of C:\Program Files\Orcad\PSpice\PSpice.ini:
.lib "nom.lib"

.INC "Lab5 2 exercicio.net"



**** INCLUDING "Lab5 2 exercicio.net" ****
* Schematics Netlist *



V_VCC         $N_0001 0 12V
R_R1         0 $N_0002  4.5k  
M_M1         $N_0002 $N_0002 $N_0001 $N_0001 Mbreakp           
M_M2         $N_0003 $N_0002 $N_0001 $N_0001 Mbreakp           
R_RL         0 $N_0003  3.3K  

**** RESUMING "Lab5 2 exercicio.cir" ****
.PROBE V(*) I(*) W(*) D(*) NOISE(*) 


.END

**** 07/07/20 18:47:39 ********* PSpice 9.2 (Mar 2000) ******** ID# 0 ********

 * D:\VideoEscola\Eletronica Analogica\Lab5 2 exercicio.sch


 ****     MOSFET MODEL PARAMETERS


******************************************************************************




               Mbreakp         
               PMOS            
       LEVEL    1            
           L  100.000000E-06 
           W  100.000000E-06 
         VTO   -1            
          KP    1.000000E-03 
       GAMMA    0            
         PHI     .6          
      LAMBDA     .01         
          IS   10.000000E-15 
          JS    0            
          PB     .8          
        PBSW     .8          
          CJ    0            
        CJSW    0            
        CGSO    0            
        CGDO    0            
        CGBO    0            
         TOX    0            
          XJ    0            
       UCRIT   10.000000E+03 
      DIOMOD    1            
         VFB    0            
        LETA    0            
        WETA    0            
          U0    0            
        TEMP    0            
         VDD    0            
       XPART    0            


**** 07/07/20 18:47:39 ********* PSpice 9.2 (Mar 2000) ******** ID# 0 ********

 * D:\VideoEscola\Eletronica Analogica\Lab5 2 exercicio.sch


 ****     SMALL SIGNAL BIAS SOLUTION       TEMPERATURE =   27.000 DEG C


******************************************************************************



 NODE   VOLTAGE     NODE   VOLTAGE     NODE   VOLTAGE     NODE   VOLTAGE


($N_0001)   12.0000                   ($N_0002)    9.0262                       

($N_0003)    6.7646                   




    VOLTAGE SOURCE CURRENTS
    NAME         CURRENT

    V_VCC       -4.056E-03

    TOTAL POWER DISSIPATION   4.87E-02  WATTS


**** 07/07/20 18:47:39 ********* PSpice 9.2 (Mar 2000) ******** ID# 0 ********

 * D:\VideoEscola\Eletronica Analogica\Lab5 2 exercicio.sch


 ****     OPERATING POINT INFORMATION      TEMPERATURE =   27.000 DEG C


******************************************************************************






**** MOSFETS


NAME         M_M1        M_M2      
MODEL        Mbreakp     Mbreakp   
ID          -2.01E-03   -2.05E-03 
VGS         -2.97E+00   -2.97E+00 
VDS         -2.97E+00   -5.24E+00 
VBS          0.00E+00    0.00E+00 
VTH         -1.00E+00   -1.00E+00 
VDSAT       -1.97E+00   -1.97E+00 
Lin0/Sat1   -1.00E+00   -1.00E+00 
if          -1.00E+00   -1.00E+00 
ir          -1.00E+00   -1.00E+00 
TAU         -1.00E+00   -1.00E+00 
GM           2.03E-03    2.08E-03 
GDS          1.95E-05    1.95E-05 
GMB          0.00E+00    0.00E+00 
CBD          0.00E+00    0.00E+00 
CBS          0.00E+00    0.00E+00 
CGSOV        0.00E+00    0.00E+00 
CGDOV        0.00E+00    0.00E+00 
CGBOV        0.00E+00    0.00E+00 
CGS          0.00E+00    0.00E+00 
CGD          0.00E+00    0.00E+00 
CGB          0.00E+00    0.00E+00 

          JOB CONCLUDED

          TOTAL JOB TIME            0.00
