
**** 07/07/20 15:33:37 ********* PSpice 9.2 (Mar 2000) ******** ID# 0 ********

 * D:\VideoEscola\Eletronica Analogica\Lab5 3 exercicio1.sch


 ****     CIRCUIT DESCRIPTION


******************************************************************************




* Schematics Version 9.2
* Tue Jul 07 15:33:33 2020



** Analysis setup **
.OP 
.LIB "D:\VideoEscola\Eletronica Analogica\Lab5 3 exercicio1.lib"


* From [PSPICE NETLIST] section of C:\Program Files\Orcad\PSpice\PSpice.ini:
.lib "nom.lib"

.INC "Lab5 3 exercicio1.net"



**** INCLUDING "Lab5 3 exercicio1.net" ****
* Schematics Netlist *



V_V3         $N_0001 0 12V
R_R3         $N_0002 $N_0001  1k  
R_R1         $N_0003 $N_0001  1k  
R_R2         0 $N_0004  1k  
M_M1         $N_0004 $N_0005 $N_0002 $N_0002 MbreakP-X           
M_M2         $N_0003 $N_0006 $N_0004 $N_0004 MbreakN-X           
V_V1         $N_0006 0 2V
V_V2         $N_0005 0 7V

**** RESUMING "Lab5 3 exercicio1.cir" ****
.PROBE V(*) I(*) W(*) D(*) NOISE(*) 


.END

**** 07/07/20 15:33:37 ********* PSpice 9.2 (Mar 2000) ******** ID# 0 ********

 * D:\VideoEscola\Eletronica Analogica\Lab5 3 exercicio1.sch


 ****     MOSFET MODEL PARAMETERS


******************************************************************************




               MbreakP-X       MbreakN-X       
               PMOS            NMOS            
       LEVEL    1               1            
           L  100.000000E-06  100.000000E-06 
           W  100.000000E-06  100.000000E-06 
         VTO   -3               3            
          KP    2.000000E-03    2.000000E-03 
       GAMMA    0               0            
         PHI     .6              .6          
      LAMBDA    0               0            
          IS   10.000000E-15   10.000000E-15 
          JS    0               0            
          PB     .8              .8          
        PBSW     .8              .8          
          CJ    0               0            
        CJSW    0               0            
        CGSO    0               0            
        CGDO    0               0            
        CGBO    0               0            
         TOX    0               0            
          XJ    0               0            
       UCRIT   10.000000E+03   10.000000E+03 
      DIOMOD    1               1            
         VFB    0               0            
        LETA    0               0            
        WETA    0               0            
          U0    0               0            
        TEMP    0               0            
         VDD    0               0            
       XPART    0               0            


**** 07/07/20 15:33:37 ********* PSpice 9.2 (Mar 2000) ******** ID# 0 ********

 * D:\VideoEscola\Eletronica Analogica\Lab5 3 exercicio1.sch


 ****     SMALL SIGNAL BIAS SOLUTION       TEMPERATURE =   27.000 DEG C


******************************************************************************



 NODE   VOLTAGE     NODE   VOLTAGE     NODE   VOLTAGE     NODE   VOLTAGE


($N_0001)   12.0000                   ($N_0002)   11.0000                       

($N_0003)   12.0000                   ($N_0004)    1.0000                       

($N_0005)    7.0000                   ($N_0006)    2.0000                   




    VOLTAGE SOURCE CURRENTS
    NAME         CURRENT

    V_V3        -1.000E-03
    V_V1         0.000E+00
    V_V2         0.000E+00

    TOTAL POWER DISSIPATION   1.20E-02  WATTS


**** 07/07/20 15:33:37 ********* PSpice 9.2 (Mar 2000) ******** ID# 0 ********

 * D:\VideoEscola\Eletronica Analogica\Lab5 3 exercicio1.sch


 ****     OPERATING POINT INFORMATION      TEMPERATURE =   27.000 DEG C


******************************************************************************






**** MOSFETS


NAME         M_M1        M_M2      
MODEL        MbreakP-X   MbreakN-X 
ID          -1.00E-03    1.10E-11 
VGS         -4.00E+00    1.00E+00 
VDS         -1.00E+01    1.10E+01 
VBS          0.00E+00    0.00E+00 
VTH         -3.00E+00    3.00E+00 
VDSAT       -1.00E+00    0.00E+00 
Lin0/Sat1   -1.00E+00   -1.00E+00 
if          -1.00E+00   -1.00E+00 
ir          -1.00E+00   -1.00E+00 
TAU         -1.00E+00   -1.00E+00 
GM           2.00E-03    0.00E+00 
GDS          0.00E+00    0.00E+00 
GMB          0.00E+00    0.00E+00 
CBD          0.00E+00    0.00E+00 
CBS          0.00E+00    0.00E+00 
CGSOV        0.00E+00    0.00E+00 
CGDOV        0.00E+00    0.00E+00 
CGBOV        0.00E+00    0.00E+00 
CGS          0.00E+00    0.00E+00 
CGD          0.00E+00    0.00E+00 
CGB          0.00E+00    0.00E+00 

          JOB CONCLUDED

          TOTAL JOB TIME            0.00
