
**** 09/03/21 01:11:07 ********* PSpice 9.2 (Mar 2000) ******** ID# 0 ********

 * C:\Users\Diogo Silva\Desktop\Projeto fim de curso\Simulao\Projeto.sch


 ****     CIRCUIT DESCRIPTION


******************************************************************************




* Schematics Version 9.2
* Fri Sep 03 01:11:07 2021



** Analysis setup **
.ac LIN 100 1 100
.tran 0ns 500ms
.OP 
.STMLIB "Projeto.stl"


* From [PSPICE NETLIST] section of C:\Program Files\PSPice\PSpice\PSpice.ini:
.lib "nom.lib"

.INC "Projeto.net"



**** INCLUDING Projeto.net ****
* Schematics Netlist *



C_C3         $N_0001 Output  30uF  
R_RF         $N_0001 Output  600  
X_U4         $N_0002 $N_0001 $N_0003 0 Output LM741
R_Rin         0 $N_0001  1K  
R_Rm         0 $N_0002  500  
R_Rfrs         $N_0002 $N_0003  300  
V_V21         $N_0003 0 DC 0V AC 5v 

**** RESUMING Projeto.cir ****
.PROBE V(*) I(*) W(*) D(*) NOISE(*) 


.END

**** 09/03/21 01:11:07 ********* PSpice 9.2 (Mar 2000) ******** ID# 0 ********

 * C:\Users\Diogo Silva\Desktop\Projeto fim de curso\Simulao\Projeto.sch


 ****     Diode MODEL PARAMETERS


******************************************************************************




               X_U4.x_lm741.dx X_U4.x_lm741.dy 
          IS  800.000000E-18  800.000000E-18 
          RS    1               1.000000E-03 
         CJO                   10.000000E-12 


**** 09/03/21 01:11:07 ********* PSpice 9.2 (Mar 2000) ******** ID# 0 ********

 * C:\Users\Diogo Silva\Desktop\Projeto fim de curso\Simulao\Projeto.sch


 ****     BJT MODEL PARAMETERS


******************************************************************************




               X_U4.x_lm741.qx 
               NPN             
          IS  800.000000E-18 
          BF   93.75         
          NF    1            
          BR    1            
          NR    1            
          CN    2.42         
           D     .87         


**** 09/03/21 01:11:07 ********* PSpice 9.2 (Mar 2000) ******** ID# 0 ********

 * C:\Users\Diogo Silva\Desktop\Projeto fim de curso\Simulao\Projeto.sch


 ****     SMALL SIGNAL BIAS SOLUTION       TEMPERATURE =   27.000 DEG C


******************************************************************************



 NODE   VOLTAGE     NODE   VOLTAGE     NODE   VOLTAGE     NODE   VOLTAGE


(Output) 74.94E-09 ($N_0001)-29.86E-06                   ($N_0002)-14.96E-06    

($N_0003)    0.0000                   (X_U4.x_lm741.6)-642.6E-06                

(X_U4.x_lm741.7)     .0034            (X_U4.x_lm741.8)     .0034                

(X_U4.x_lm741.9)    0.0000            (X_U4.x_lm741.10)    -.6077               

(X_U4.x_lm741.11)    -.0397           (X_U4.x_lm741.12)    -.0397               

(X_U4.x_lm741.13)    -.5938           (X_U4.x_lm741.14)    -.5938               

(X_U4.x_lm741.53)   -1.0000           (X_U4.x_lm741.54)    1.0000               

(X_U4.x_lm741.90)     .0681           (X_U4.x_lm741.91)   40.0000               

(X_U4.x_lm741.92)  -40.0000           (X_U4.x_lm741.99)    0.0000           




    VOLTAGE SOURCE CURRENTS
    NAME         CURRENT

    V_V21        2.153E+01
    X_U4.x_lm741.vb  -6.426E-09
    X_U4.x_lm741.vc  -2.153E+01
    X_U4.x_lm741.ve  -2.153E+01
    X_U4.x_lm741.vlim   6.812E-05
    X_U4.x_lm741.vlp  -3.993E-11
    X_U4.x_lm741.vln  -4.007E-11

    TOTAL POWER DISSIPATION   4.31E+01  WATTS


**** 09/03/21 01:11:07 ********* PSpice 9.2 (Mar 2000) ******** ID# 0 ********

 * C:\Users\Diogo Silva\Desktop\Projeto fim de curso\Simulao\Projeto.sch


 ****     OPERATING POINT INFORMATION      TEMPERATURE =   27.000 DEG C


******************************************************************************






**** VOLTAGE-CONTROLLED CURRENT SOURCES


NAME         X_U4.x_lm741.ga         X_U4.x_lm741.gcm      
I-SOURCE     2.803E-09              -3.622E-09            


**** VOLTAGE-CONTROLLED VOLTAGE SOURCES


NAME         X_U4.x_lm741.egnd     
V-SOURCE     0.000E+00            
I-SOURCE    -6.817E-05            


**** CURRENT-CONTROLLED CURRENT SOURCES


NAME         X_U4.x_lm741.fb       
I-SOURCE    -1.023E-04            


**** CURRENT-CONTROLLED VOLTAGE SOURCES


NAME         X_U4.x_lm741.hlim     
V-SOURCE     6.812E-02            
I-SOURCE    -1.363E-13            


**** DIODES


NAME         X_U4.x_lm741.dc         X_U4.x_lm741.de       
MODEL        X_U4.x_lm741.dy         X_U4.x_lm741.dy       
ID           2.15E+01                2.15E+01             
VD           1.00E+00                1.00E+00             
REQ          1.20E-03                1.20E-03             
CAP          2.09E-11                2.09E-11             

NAME         X_U4.x_lm741.dlp        X_U4.x_lm741.dln      
MODEL        X_U4.x_lm741.dx         X_U4.x_lm741.dx       
ID          -3.99E-11               -4.01E-11             
VD          -3.99E+01               -4.01E+01             
REQ          1.00E+12                1.00E+12             
CAP          0.00E+00                0.00E+00             

NAME         X_U4.x_lm741.dp       
MODEL        X_U4.x_lm741.dx       
ID           0.00E+00             
VD           0.00E+00             
REQ          9.70E+11             
CAP          0.00E+00             


**** BIPOLAR JUNCTION TRANSISTORS


NAME         X_U4.x_lm741.q1         X_U4.x_lm741.q2       
MODEL        X_U4.x_lm741.qx         X_U4.x_lm741.qx       
IB           7.97E-08                7.98E-08             
IC           7.48E-06                7.48E-06             
VBE          5.94E-01                5.94E-01             
VBC          3.96E-02                3.97E-02             
VCE          5.54E-01                5.54E-01             
BETADC       9.38E+01                9.38E+01             
GM           2.89E-04                2.89E-04             
RPI          3.24E+05                3.24E+05             
RX           0.00E+00                0.00E+00             
RO           8.75E+11                8.75E+11             
CBE          0.00E+00                0.00E+00             
CBC          0.00E+00                0.00E+00             
CJS          0.00E+00                0.00E+00             
BETAAC       9.38E+01                9.38E+01             
CBX/CBX2     0.00E+00                0.00E+00             
FT/FT2       4.60E+15                4.60E+15             


**** 09/03/21 01:11:07 ********* PSpice 9.2 (Mar 2000) ******** ID# 0 ********

 * C:\Users\Diogo Silva\Desktop\Projeto fim de curso\Simulao\Projeto.sch


 ****     INITIAL TRANSIENT SOLUTION       TEMPERATURE =   27.000 DEG C


******************************************************************************



 NODE   VOLTAGE     NODE   VOLTAGE     NODE   VOLTAGE     NODE   VOLTAGE


(Output) 74.94E-09 ($N_0001)-29.86E-06                   ($N_0002)-14.96E-06    

($N_0003)    0.0000                   (X_U4.x_lm741.6)-642.6E-06                

(X_U4.x_lm741.7)     .0034            (X_U4.x_lm741.8)     .0034                

(X_U4.x_lm741.9)    0.0000            (X_U4.x_lm741.10)    -.6077               

(X_U4.x_lm741.11)    -.0397           (X_U4.x_lm741.12)    -.0397               

(X_U4.x_lm741.13)    -.5938           (X_U4.x_lm741.14)    -.5938               

(X_U4.x_lm741.53)   -1.0000           (X_U4.x_lm741.54)    1.0000               

(X_U4.x_lm741.90)     .0681           (X_U4.x_lm741.91)   40.0000               

(X_U4.x_lm741.92)  -40.0000           (X_U4.x_lm741.99)    0.0000           




    VOLTAGE SOURCE CURRENTS
    NAME         CURRENT

    V_V21        2.153E+01
    X_U4.x_lm741.vb  -6.426E-09
    X_U4.x_lm741.vc  -2.153E+01
    X_U4.x_lm741.ve  -2.153E+01
    X_U4.x_lm741.vlim   6.812E-05
    X_U4.x_lm741.vlp  -3.993E-11
    X_U4.x_lm741.vln  -4.007E-11

    TOTAL POWER DISSIPATION   4.31E+01  WATTS



          JOB CONCLUDED

          TOTAL JOB TIME             .03
