
**** 06/17/20 11:12:27 *********** Evaluation PSpice (Nov 1999) **************

 * C:\Users\joaoq\Desktop\lixo\Schematic1.sch


 ****     CIRCUIT DESCRIPTION


******************************************************************************




* Schematics Version 9.1 - Web Update 1
* Tue Jun 16 16:49:08 2020



** Analysis setup **
.DC LIN V_VCC 0 +10 0.01 
+ OCT V_VBB 2.7 10.7 2 
.OP 


* From [PSPICE NETLIST] section of pspiceev.ini:
.lib "nom.lib"

.INC "Schematic1.net"

**** INCLUDING Schematic1.net ****
* Schematics Netlist *



V_VCC         $N_0001 0 0V
V_VBB         $N_0002 0 0V
Q_Q1         $N_0004 $N_0003 0 Q2N2222
R_R1         $N_0002 $N_0003  47k  
R_R3         $N_0004 $N_0001  180  

**** RESUMING Schematic1.cir ****
.INC "Schematic1.als"



**** INCLUDING Schematic1.als ****
* Schematics Aliases *

.ALIASES
V_VCC           VCC(+=$N_0001 -=0 )
V_VBB           VBB(+=$N_0002 -=0 )
Q_Q1            Q1(c=$N_0004 b=$N_0003 e=0 )
R_R1            R1(1=$N_0002 2=$N_0003 )
R_R3            R3(1=$N_0004 2=$N_0001 )
.ENDALIASES


**** RESUMING Schematic1.cir ****
.probe


.END

**** 06/17/20 11:12:27 *********** Evaluation PSpice (Nov 1999) **************

 * C:\Users\joaoq\Desktop\lixo\Schematic1.sch


 ****     BJT MODEL PARAMETERS


******************************************************************************




               Q2N2222         
               NPN             
          IS   14.340000E-15 
          BF  255.9          
          NF    1            
         VAF   74.03         
         IKF     .2847       
         ISE   14.340000E-15 
          NE    1.307        
          BR    6.092        
          NR    1            
          RB   10            
          RC    1            
         CJE   22.010000E-12 
         MJE     .377        
         CJC    7.306000E-12 
         MJC     .3416       
          TF  411.100000E-12 
         XTF    3            
         VTF    1.7          
         ITF     .6          
          TR   46.910000E-09 
         XTB    1.5          
          CN    2.42         
           D     .87         


**** 06/17/20 11:12:27 *********** Evaluation PSpice (Nov 1999) **************

 * C:\Users\joaoq\Desktop\lixo\Schematic1.sch


 ****     SMALL SIGNAL BIAS SOLUTION       TEMPERATURE =   27.000 DEG C


******************************************************************************



 NODE   VOLTAGE     NODE   VOLTAGE     NODE   VOLTAGE     NODE   VOLTAGE


($N_0001)    0.0000                   ($N_0002)    0.0000                       

($N_0003) 69.67E-27                   ($N_0004) 11.61E-30                   




    VOLTAGE SOURCE CURRENTS
    NAME         CURRENT

    V_VCC        0.000E+00
    V_VBB        1.482E-30

    TOTAL POWER DISSIPATION   0.00E+00  WATTS


**** 06/17/20 11:12:27 *********** Evaluation PSpice (Nov 1999) **************

 * C:\Users\joaoq\Desktop\lixo\Schematic1.sch


 ****     OPERATING POINT INFORMATION      TEMPERATURE =   27.000 DEG C


******************************************************************************






**** BIPOLAR JUNCTION TRANSISTORS


NAME         Q_Q1      
MODEL        Q2N2222   
IB           0.00E+00 
IC          -0.00E+00 
VBE          6.97E-26 
VBC          6.97E-26 
VCE          1.16E-29 
BETADC      -1.14E-18 
GM           0.00E+00 
RPI          2.32E+12 
RX           1.00E+01 
RO           6.43E+11 
CBE          2.20E-11 
CBC          7.31E-12 
CJS          0.00E+00 
BETAAC       0.00E+00 
CBX/CBX2     0.00E+00 
FT/FT2       0.00E+00 



          JOB CONCLUDED

          TOTAL JOB TIME             .11
